
T12E0 000:003 SEGGER J-Link V6.12 Log File (0000ms, 0003ms total)
T12E0 000:003 DLL Compiled: Nov 25 2016 18:08:26 (0000ms, 0003ms total)
T12E0 000:003 Logging started @ 2022-07-21 23:21 (0000ms, 0003ms total)
T12E0 000:003 JLINK_SetWarnOutHandler(...) (0000ms, 0003ms total)
T12E0 000:003 JLINK_OpenEx(...)
Firmware: J-Link V11 compiled Apr 27 2041 16:36:21
Hardware: V11.00
S/N: 941000024
Feature(s): GDB, JFlash, FlashDL, RDI, FlashBPWEBSRV Webserver running on local port 19080 (0016ms, 0019ms total)
T12E0 000:003   returns O.K. (0016ms, 0019ms total)
T12E0 000:019 JLINK_GetEmuCaps()  returns 0xB9FF7BBF (0000ms, 0019ms total)
T12E0 000:019 JLINK_TIF_GetAvailable(...) (0001ms, 0020ms total)
T12E0 000:020 JLINK_SetErrorOutHandler(...) (0000ms, 0020ms total)
T12E0 000:020 JLINK_ExecCommand("ProjectFile = "E:\m0\HA305-Keyboard\Keyboard\proj\JLinkSettings.ini"", ...). C:\Program Files (x86)\SEGGER\JLink_V612\JLinkDevices.xml evaluated successfully.Device "STM32F072R8" selected.  returns 0x00 (0109ms, 0129ms total)
T12E0 000:131 JLINK_ExecCommand("Device = FT32F072R8BTx", ...). Device "STM32F072R8" selected.  returns 0x00 (0004ms, 0133ms total)
T12E0 000:135 JLINK_ExecCommand("DisableConnectionTimeout", ...).   returns 0x01 (0000ms, 0133ms total)
T12E0 000:135 JLINK_GetHardwareVersion()  returns 0x1ADB0 (0000ms, 0133ms total)
T12E0 000:135 JLINK_GetDLLVersion()  returns 61200 (0000ms, 0133ms total)
T12E0 000:135 JLINK_GetFirmwareString(...) (0000ms, 0133ms total)
T12E0 000:142 JLINK_GetDLLVersion()  returns 61200 (0000ms, 0133ms total)
T12E0 000:142 JLINK_GetCompileDateTime() (0000ms, 0133ms total)
T12E0 000:145 JLINK_GetFirmwareString(...) (0000ms, 0133ms total)
T12E0 000:147 JLINK_GetHardwareVersion()  returns 0x1ADB0 (0000ms, 0133ms total)
T12E0 000:157 JLINK_TIF_Select(JLINKARM_TIF_SWD)  returns 0x00 (0004ms, 0137ms total)
T12E0 000:161 JLINK_SetSpeed(2000) (0001ms, 0138ms total)
T12E0 000:162 JLINK_GetId() >0x108 TIF>Found SWD-DP with ID 0x0BB11477 >0x0D TIF> >0x28 TIF> >0x0D TIF> >0x28 TIF> >0x0D TIF> >0x28 TIF> >0x0D TIF> >0x28 TIF> >0x0D TIF> >0x21 TIF> >0x0D TIF> >0x28 TIF> >0x0D TIF> >0x28 TIF> >0x0D TIF> >0x28 TIF> >0x0D TIF> >0x21 TIF> >0x0D TIF> >0x21 TIF> >0x0D TIF> >0x28 TIF> >0x0D TIF> >0x21 TIF> >0x0D TIF> >0x21 TIF> >0x0D TIF> >0x28 TIF> >0x0D TIF> >0x21 TIF> >0x0D TIF> >0x21 TIF> >0x0D TIF> >0x28 TIF> >0x0D TIF> >0x28 TIF> >0x0D TIF> >0x28 TIF> >0x0D TIF>
 >0x21 TIF> >0x0D TIF> >0x21 TIF> >0x0D TIF> >0x28 TIF> >0x0D TIF> >0x28 TIF> >0x0D TIF> >0x28 TIF> >0x0D TIF> >0x21 TIF> >0x0D TIF> >0x21 TIF> >0x0D TIF> >0x28 TIF> >0x0D TIF> >0x28 TIF> >0x0D TIF> >0x28 TIF> >0x0D TIF> >0x21 TIF> >0x0D TIF> >0x21 TIF> >0x0D TIF> >0x28 TIF> >0x0D TIF> >0x21 TIF> >0x0D TIF> >0x21 TIF> >0x0D TIF> >0x28 TIF> >0x0D TIF> >0x21 TIF> >0x0D TIF> >0x21 TIF> >0x0D TIF> >0x28 TIF> >0x0D TIF> >0x21 TIF> >0x0D TIF> >0x21 TIF> >0x0D TIF> >0x28 TIF> >0x0D TIF> >0x21 TIF> >0x0D TIF>
 >0x21 TIF> >0x108 TIF>Found SWD-DP with ID 0x0BB11477 >0x0D TIF> >0x28 TIF> >0x0D TIF> >0x28 TIF> >0x0D TIF> >0x28 TIF> >0x0D TIF> >0x28 TIF> >0x0D TIF> >0x21 TIF> >0x0D TIF> >0x28 TIF> >0x0D TIF> >0x28 TIF> >0x0D TIF> >0x21 TIF> >0x0D TIF> >0x21 TIF> >0x0D TIF> >0x21 TIF>AP-IDR: 0x04770021, Type: AHB-AP >0x0D TIF> >0x28 TIF> >0x0D TIF> >0x28 TIF> >0x0D TIF> >0x28 TIF> >0x0D TIF> >0x21 TIF> >0x0D TIF> >0x21 TIF> >0x0D TIF> >0x28 TIF> >0x0D TIF> >0x21 TIF> >0x0D TIF> >0x21 TIF>
Found Cortex-M0 r0p0, Little endian. -- CPU_ReadMem(4 bytes @ 0xE000EDF0) -- CPU_ReadMem(4 bytes @ 0xE0002000)FPUnit: 4 code (BP) slots and 0 literal slots -- CPU_ReadMem(4 bytes @ 0xE000EDFC) -- CPU_ReadMem(4 bytes @ 0xE0001000) -- CPU_WriteMem(4 bytes @ 0xE0001000)CoreSight components:ROMTbl 0 @ E00FF000 -- CPU_ReadMem(16 bytes @ 0xE00FF000) -- CPU_ReadMem(16 bytes @ 0xE000EFF0) -- CPU_ReadMem(16 bytes @ 0xE000EFE0)ROMTbl 0 [0]: FFF0F000, CID: B105E00D, PID: 000BB008 SCS
 -- CPU_ReadMem(16 bytes @ 0xE0001FF0) -- CPU_ReadMem(16 bytes @ 0xE0001FE0)ROMTbl 0 [1]: FFF02000, CID: B105E00D, PID: 000BB00A DWT -- CPU_ReadMem(16 bytes @ 0xE0002FF0) -- CPU_ReadMem(16 bytes @ 0xE0002FE0)ROMTbl 0 [2]: FFF03000, CID: B105E00D, PID: 000BB00B FPB -- CPU is running -- CPU_WriteMem(4 bytes @ 0xE000EDF0) -- CPU is running -- CPU_WriteMem(4 bytes @ 0xE000EDFC) >0x35 TIF> -- CPU is running -- CPU_WriteMem(4 bytes @ 0xE000ED0C) -- CPU is running -- CPU_ReadMem(4 bytes @ 0xE000EDF0)
 -- CPU is running -- CPU_ReadMem(4 bytes @ 0xE000EDF0) -- CPU is running -- CPU_WriteMem(4 bytes @ 0xE000EDF0) -- CPU is running -- CPU_WriteMem(4 bytes @ 0xE000EDFC) -- CPU is running -- CPU_ReadMem(4 bytes @ 0xE000EDF0) -- CPU_WriteMem(4 bytes @ 0xE0002000) -- CPU_ReadMem(4 bytes @ 0xE000EDFC) -- CPU_ReadMem(4 bytes @ 0xE0001000) -- CPU_WriteMem(4 bytes @ 0xE0001000) -- CPU_WriteMem(16384 bytes @ 0x20000000) >0x0D TIF> >0x21 TIF>  returns 0x0BB11477 (0153ms, 0291ms total)
T12E0 000:315 JLINK_GetDLLVersion()  returns 61200 (0000ms, 0291ms total)
T12E0 000:315 JLINK_CORE_GetFound()  returns 0x60000FF (0000ms, 0291ms total)
T12E0 000:315 JLINK_GetDebugInfo(0x100) -- Value=0xE00FF000  returns 0x00 (0000ms, 0291ms total)
T12E0 000:322 JLINK_GetDebugInfo(0x100) -- Value=0xE00FF000  returns 0x00 (0000ms, 0291ms total)
T12E0 000:322 JLINK_GetDebugInfo(0x101) -- Value=0x00000000  returns 0x00 (0000ms, 0291ms total)
T12E0 000:322 JLINK_ReadMemEx(0xE0041FF0, 0x0010 Bytes, ..., AccessWidth = 33554436) - Data: AA AA AA AA AA AA AA AA AA AA AA AA AA AA AA AA  returns 0xFFFFFEFA (1291ms, 1582ms total)
T12E0 001:614 JLINK_GetDebugInfo(0x102) -- Value=0x00000000  returns 0x00 (0000ms, 1582ms total)
T12E0 001:614 JLINK_GetDebugInfo(0x103) -- Value=0x00000000  returns 0x00 (0000ms, 1582ms total)
T12E0 001:614 JLINK_ReadMemEx(0xE0040FF0, 0x0010 Bytes, ..., AccessWidth = 33554436) - Data: AA AA AA AA AA AA AA AA AA AA AA AA AA AA AA AA  returns 0xFFFFFEFA (0000ms, 1582ms total)
T12E0 001:614 JLINK_GetDebugInfo(0x104) -- Value=0xE0000000  returns 0x00 (0000ms, 1582ms total)
T12E0 001:614 JLINK_GetDebugInfo(0x105) -- Value=0xE0001000  returns 0x00 (0000ms, 1582ms total)
T12E0 001:614 JLINK_GetDebugInfo(0x106) -- Value=0xE0002000  returns 0x00 (0000ms, 1582ms total)
T12E0 001:614 JLINK_GetDebugInfo(0x107) -- Value=0xE000E000  returns 0x00 (0000ms, 1582ms total)
T12E0 001:614 JLINK_GetDebugInfo(0x10C) -- Value=0xE000EDF0  returns 0x00 (0000ms, 1582ms total)
T12E0 001:614 JLINK_GetDebugInfo(0x01)  returns 0xFFFFFFFF (0000ms, 1582ms total)
T12E0 001:614 JLINK_GetDeviceFamily()  returns 6 (0000ms, 1582ms total)
T12E0 001:614 JLINK_ReadMemU32(0xE000ED00, 0x0001 Items, ...) -- CPU_ReadMem(4 bytes @ 0xE000ED00) - Data: 00 C2 0C 41  returns 0x01 (0001ms, 1583ms total)
T12E0 001:615 JLINK_GetDebugInfo(0x10F) -- Value=0x00000000  returns 0x00 (0000ms, 1583ms total)
T12E0 001:615 JLINK_SetResetType(JLINKARM_CM3_RESET_TYPE_NORMAL)  returns JLINKARM_CM3_RESET_TYPE_NORMAL (0000ms, 1583ms total)
T12E0 001:615 JLINK_Reset() -- CPU_ReadMem(4 bytes @ 0x20000000) -- CPU_WriteMem(4 bytes @ 0x20000000) -- CPU_WriteMem(4 bytes @ 0xE000EDF0) -- CPU_WriteMem(4 bytes @ 0xE000EDFC) >0x35 TIF> -- CPU_WriteMem(4 bytes @ 0xE000ED0C) -- CPU_ReadMem(4 bytes @ 0xE000EDF0) -- CPU_ReadMem(4 bytes @ 0xE000EDF0) -- CPU_WriteMem(4 bytes @ 0xE000EDF0) -- CPU_WriteMem(4 bytes @ 0xE000EDFC) -- CPU is running -- CPU_ReadMem(4 bytes @ 0xE000EDF0) -- CPU_WriteMem(4 bytes @ 0xE0002000) -- CPU_ReadMem(4 bytes @ 0xE000EDFC)
 -- CPU_ReadMem(4 bytes @ 0xE0001000) -- CPU_WriteMem(4 bytes @ 0xE0001000) (0017ms, 1600ms total)
T12E0 001:632 JLINK_Halt()  returns 0x00 (0000ms, 1600ms total)
T12E0 001:632 JLINK_ReadMemU32(0xE000EDF0, 0x0001 Items, ...) -- CPU_ReadMem(4 bytes @ 0xE000EDF0) - Data: 03 00 03 00  returns 0x01 (0001ms, 1601ms total)
T12E0 001:633 JLINK_WriteU32(0xE000EDF0, 0xA05F0003) -- CPU_WriteMem(4 bytes @ 0xE000EDF0)  returns 0x00 (0001ms, 1602ms total)
T12E0 001:634 JLINK_WriteU32(0xE000EDFC, 0x01000000) -- CPU_WriteMem(4 bytes @ 0xE000EDFC)  returns 0x00 (0000ms, 1602ms total)
T12E0 001:645 JLINK_GetHWStatus(...)  returns 0x00 (0000ms, 1602ms total)
T12E0 001:652 JLINK_GetNumBPUnits(Type = 0xFFFFFF00)  returns 0x04 (0000ms, 1602ms total)
T12E0 001:652 JLINK_GetNumBPUnits(Type = 0xF0)  returns 0x2000 (0000ms, 1602ms total)
T12E0 001:652 JLINK_GetNumWPUnits()  returns 0x02 (0000ms, 1602ms total)
T12E0 001:659 JLINK_GetSpeed()  returns 0x7D0 (0000ms, 1602ms total)
T12E0 001:663 JLINK_ReadMemU32(0xE000E004, 0x0001 Items, ...) -- CPU_ReadMem(4 bytes @ 0xE000E004) - Data: 00 00 00 00  returns 0x01 (0018ms, 1620ms total)
T12E0 001:681 JLINK_Halt()  returns 0x00 (0000ms, 1620ms total)
T12E0 001:681 JLINK_IsHalted()  returns TRUE (0000ms, 1620ms total)
T12E0 001:683 JLINK_WriteMem(0x20000000, 0x0178 Bytes, ...) - Data: 00 BE 0A E0 0D 78 2D 06 68 40 08 24 40 00 00 D3 ... -- CPU_WriteMem(376 bytes @ 0x20000000)  returns 0x178 (0003ms, 1623ms total)
T12E0 001:686 JLINK_WriteReg(R0, 0x08000000)  returns 0x00 (0000ms, 1623ms total)
T12E0 001:686 JLINK_WriteReg(R1, 0x00B71B00)  returns 0x00 (0000ms, 1623ms total)
T12E0 001:686 JLINK_WriteReg(R2, 0x00000001)  returns 0x00 (0000ms, 1623ms total)
T12E0 001:686 JLINK_WriteReg(R3, 0x00000000)  returns 0x00 (0000ms, 1623ms total)
T12E0 001:686 JLINK_WriteReg(R4, 0x00000000)  returns 0x00 (0000ms, 1623ms total)
T12E0 001:686 JLINK_WriteReg(R5, 0x00000000)  returns 0x00 (0000ms, 1623ms total)
T12E0 001:686 JLINK_WriteReg(R6, 0x00000000)  returns 0x00 (0000ms, 1623ms total)
T12E0 001:686 JLINK_WriteReg(R7, 0x00000000)  returns 0x00 (0000ms, 1623ms total)
T12E0 001:686 JLINK_WriteReg(R8, 0x00000000)  returns 0x00 (0000ms, 1623ms total)
T12E0 001:686 JLINK_WriteReg(R9, 0x20000174)  returns 0x00 (0000ms, 1623ms total)
T12E0 001:686 JLINK_WriteReg(R10, 0x00000000)  returns 0x00 (0000ms, 1623ms total)
T12E0 001:686 JLINK_WriteReg(R11, 0x00000000)  returns 0x00 (0000ms, 1623ms total)
T12E0 001:686 JLINK_WriteReg(R12, 0x00000000)  returns 0x00 (0000ms, 1623ms total)
T12E0 001:686 JLINK_WriteReg(R13 (SP), 0x20001000)  returns 0x00 (0000ms, 1623ms total)
T12E0 001:686 JLINK_WriteReg(R14, 0x20000001)  returns 0x00 (0000ms, 1623ms total)
T12E0 001:686 JLINK_WriteReg(R15 (PC), 0x20000038)  returns 0x00 (0000ms, 1623ms total)
T12E0 001:686 JLINK_WriteReg(XPSR, 0x01000000)  returns 0x00 (0000ms, 1623ms total)
T12E0 001:686 JLINK_WriteReg(MSP, 0x20001000)  returns 0x00 (0000ms, 1623ms total)
T12E0 001:686 JLINK_WriteReg(PSP, 0x20001000)  returns 0x00 (0000ms, 1623ms total)
T12E0 001:686 JLINK_WriteReg(CFBP, 0x00000000)  returns 0x00 (0000ms, 1623ms total)
T12E0 001:686 JLINK_SetBPEx(Addr = 0x20000000, Type = 0xFFFFFFF2) -- CPU_ReadMem(2 bytes @ 0x20000000)  returns 0x00000001 (0001ms, 1624ms total)
T12E0 001:687 JLINK_Go() -- CPU_WriteMem(2 bytes @ 0x20000000) -- CPU_ReadMem(4 bytes @ 0xE0001000) -- CPU_WriteMem(4 bytes @ 0xE0001000) -- CPU_WriteMem(4 bytes @ 0xE0002008) -- CPU_WriteMem(4 bytes @ 0xE000200C) -- CPU_WriteMem(4 bytes @ 0xE0002010) -- CPU_WriteMem(4 bytes @ 0xE0002014) -- CPU_WriteMem(4 bytes @ 0xE0001004) (0005ms, 1629ms total)
T12E0 001:692 JLINK_IsHalted() -- CPU_ReadMem(2 bytes @ 0x20000000)  returns TRUE (0031ms, 1660ms total)
T12E0 001:723 JLINK_ReadReg(R15 (PC))  returns 0x20000000 (0000ms, 1629ms total)
T12E0 001:723 JLINK_ClrBPEx(BPHandle = 0x00000001)  returns 0x00 (0000ms, 1629ms total)
T12E0 001:723 JLINK_ReadReg(R0)  returns 0x00000000 (0000ms, 1629ms total)
T12E0 001:723 JLINK_WriteReg(R0, 0x08000000)  returns 0x00 (0000ms, 1629ms total)
T12E0 001:723 JLINK_WriteReg(R1, 0x00B71B00)  returns 0x00 (0000ms, 1629ms total)
T12E0 001:723 JLINK_WriteReg(R2, 0x00000001)  returns 0x00 (0000ms, 1629ms total)
T12E0 001:723 JLINK_WriteReg(R3, 0x00000000)  returns 0x00 (0000ms, 1629ms total)
T12E0 001:723 JLINK_WriteReg(R4, 0x00000000)  returns 0x00 (0000ms, 1629ms total)
T12E0 001:723 JLINK_WriteReg(R5, 0x00000000)  returns 0x00 (0000ms, 1629ms total)
T12E0 001:723 JLINK_WriteReg(R6, 0x00000000)  returns 0x00 (0000ms, 1629ms total)
T12E0 001:723 JLINK_WriteReg(R7, 0x00000000)  returns 0x00 (0000ms, 1629ms total)
T12E0 001:723 JLINK_WriteReg(R8, 0x00000000)  returns 0x00 (0001ms, 1630ms total)
T12E0 001:724 JLINK_WriteReg(R9, 0x20000174)  returns 0x00 (0000ms, 1630ms total)
T12E0 001:724 JLINK_WriteReg(R10, 0x00000000)  returns 0x00 (0000ms, 1630ms total)
T12E0 001:724 JLINK_WriteReg(R11, 0x00000000)  returns 0x00 (0000ms, 1630ms total)
T12E0 001:724 JLINK_WriteReg(R12, 0x00000000)  returns 0x00 (0000ms, 1630ms total)
T12E0 001:724 JLINK_WriteReg(R13 (SP), 0x20001000)  returns 0x00 (0000ms, 1630ms total)
T12E0 001:724 JLINK_WriteReg(R14, 0x20000001)  returns 0x00 (0000ms, 1630ms total)
T12E0 001:724 JLINK_WriteReg(R15 (PC), 0x2000007C)  returns 0x00 (0000ms, 1630ms total)
T12E0 001:724 JLINK_WriteReg(XPSR, 0x01000000)  returns 0x00 (0000ms, 1630ms total)
T12E0 001:724 JLINK_WriteReg(MSP, 0x20001000)  returns 0x00 (0000ms, 1630ms total)
T12E0 001:724 JLINK_WriteReg(PSP, 0x20001000)  returns 0x00 (0000ms, 1630ms total)
T12E0 001:724 JLINK_WriteReg(CFBP, 0x00000000)  returns 0x00 (0000ms, 1630ms total)
T12E0 001:724 JLINK_SetBPEx(Addr = 0x20000000, Type = 0xFFFFFFF2)  returns 0x00000002 (0000ms, 1630ms total)
T12E0 001:724 JLINK_Go() -- CPU_ReadMem(4 bytes @ 0xE0001000) -- CPU_WriteMem(4 bytes @ 0xE0001000) (0002ms, 1632ms total)
T12E0 001:726 JLINK_IsHalted()  returns FALSE (0001ms, 1633ms total)
T12E0 001:862 JLINK_IsHalted() -- CPU_ReadMem(2 bytes @ 0x20000000)  returns TRUE (0009ms, 1641ms total)
T12E0 001:871 JLINK_ReadReg(R15 (PC))  returns 0x20000000 (0000ms, 1632ms total)
T12E0 001:871 JLINK_ClrBPEx(BPHandle = 0x00000002)  returns 0x00 (0000ms, 1632ms total)
T12E0 001:871 JLINK_ReadReg(R0)  returns 0x00000000 (0000ms, 1632ms total)
T12E0 001:922 JLINK_WriteReg(R0, 0x00000001)  returns 0x00 (0000ms, 1632ms total)
T12E0 001:922 JLINK_WriteReg(R1, 0x00B71B00)  returns 0x00 (0000ms, 1632ms total)
T12E0 001:922 JLINK_WriteReg(R2, 0x00000001)  returns 0x00 (0000ms, 1632ms total)
T12E0 001:922 JLINK_WriteReg(R3, 0x00000000)  returns 0x00 (0000ms, 1632ms total)
T12E0 001:922 JLINK_WriteReg(R4, 0x00000000)  returns 0x00 (0000ms, 1632ms total)
T12E0 001:922 JLINK_WriteReg(R5, 0x00000000)  returns 0x00 (0000ms, 1632ms total)
T12E0 001:922 JLINK_WriteReg(R6, 0x00000000)  returns 0x00 (0000ms, 1632ms total)
T12E0 001:922 JLINK_WriteReg(R7, 0x00000000)  returns 0x00 (0000ms, 1632ms total)
T12E0 001:922 JLINK_WriteReg(R8, 0x00000000)  returns 0x00 (0000ms, 1632ms total)
T12E0 001:922 JLINK_WriteReg(R9, 0x20000174)  returns 0x00 (0000ms, 1632ms total)
T12E0 001:922 JLINK_WriteReg(R10, 0x00000000)  returns 0x00 (0000ms, 1632ms total)
T12E0 001:922 JLINK_WriteReg(R11, 0x00000000)  returns 0x00 (0000ms, 1632ms total)
T12E0 001:922 JLINK_WriteReg(R12, 0x00000000)  returns 0x00 (0000ms, 1632ms total)
T12E0 001:922 JLINK_WriteReg(R13 (SP), 0x20001000)  returns 0x00 (0000ms, 1632ms total)
T12E0 001:922 JLINK_WriteReg(R14, 0x20000001)  returns 0x00 (0000ms, 1632ms total)
T12E0 001:922 JLINK_WriteReg(R15 (PC), 0x2000006E)  returns 0x00 (0000ms, 1632ms total)
T12E0 001:922 JLINK_WriteReg(XPSR, 0x01000000)  returns 0x00 (0000ms, 1632ms total)
T12E0 001:922 JLINK_WriteReg(MSP, 0x20001000)  returns 0x00 (0000ms, 1632ms total)
T12E0 001:922 JLINK_WriteReg(PSP, 0x20001000)  returns 0x00 (0000ms, 1632ms total)
T12E0 001:922 JLINK_WriteReg(CFBP, 0x00000000)  returns 0x00 (0000ms, 1632ms total)
T12E0 001:922 JLINK_SetBPEx(Addr = 0x20000000, Type = 0xFFFFFFF2)  returns 0x00000003 (0001ms, 1633ms total)
T12E0 001:923 JLINK_Go() -- CPU_ReadMem(4 bytes @ 0xE0001000) -- CPU_WriteMem(4 bytes @ 0xE0001000) (0004ms, 1637ms total)
T12E0 001:927 JLINK_IsHalted() -- CPU_ReadMem(2 bytes @ 0x20000000)  returns TRUE (0004ms, 1641ms total)
T12E0 001:931 JLINK_ReadReg(R15 (PC))  returns 0x20000000 (0000ms, 1637ms total)
T12E0 001:931 JLINK_ClrBPEx(BPHandle = 0x00000003)  returns 0x00 (0000ms, 1637ms total)
T12E0 001:931 JLINK_ReadReg(R0)  returns 0x00000000 (0000ms, 1637ms total)
T12E0 001:940 JLINK_WriteMem(0x20000000, 0x0178 Bytes, ...) - Data: 00 BE 0A E0 0D 78 2D 06 68 40 08 24 40 00 00 D3 ... -- CPU_WriteMem(376 bytes @ 0x20000000)  returns 0x178 (0022ms, 1659ms total)
T12E0 001:962 JLINK_WriteReg(R0, 0x08000000)  returns 0x00 (0000ms, 1659ms total)
T12E0 001:962 JLINK_WriteReg(R1, 0x00B71B00)  returns 0x00 (0000ms, 1659ms total)
T12E0 001:962 JLINK_WriteReg(R2, 0x00000002)  returns 0x00 (0000ms, 1659ms total)
T12E0 001:962 JLINK_WriteReg(R3, 0x00000000)  returns 0x00 (0000ms, 1659ms total)
T12E0 001:962 JLINK_WriteReg(R4, 0x00000000)  returns 0x00 (0000ms, 1659ms total)
T12E0 001:962 JLINK_WriteReg(R5, 0x00000000)  returns 0x00 (0000ms, 1659ms total)
T12E0 001:962 JLINK_WriteReg(R6, 0x00000000)  returns 0x00 (0000ms, 1659ms total)
T12E0 001:962 JLINK_WriteReg(R7, 0x00000000)  returns 0x00 (0000ms, 1659ms total)
T12E0 001:962 JLINK_WriteReg(R8, 0x00000000)  returns 0x00 (0000ms, 1659ms total)
T12E0 001:962 JLINK_WriteReg(R9, 0x20000174)  returns 0x00 (0000ms, 1659ms total)
T12E0 001:962 JLINK_WriteReg(R10, 0x00000000)  returns 0x00 (0000ms, 1659ms total)
T12E0 001:962 JLINK_WriteReg(R11, 0x00000000)  returns 0x00 (0000ms, 1659ms total)
T12E0 001:962 JLINK_WriteReg(R12, 0x00000000)  returns 0x00 (0001ms, 1660ms total)
T12E0 001:963 JLINK_WriteReg(R13 (SP), 0x20001000)  returns 0x00 (0000ms, 1660ms total)
T12E0 001:963 JLINK_WriteReg(R14, 0x20000001)  returns 0x00 (0000ms, 1660ms total)
T12E0 001:963 JLINK_WriteReg(R15 (PC), 0x20000038)  returns 0x00 (0000ms, 1660ms total)
T12E0 001:963 JLINK_WriteReg(XPSR, 0x01000000)  returns 0x00 (0000ms, 1660ms total)
T12E0 001:963 JLINK_WriteReg(MSP, 0x20001000)  returns 0x00 (0000ms, 1660ms total)
T12E0 001:963 JLINK_WriteReg(PSP, 0x20001000)  returns 0x00 (0000ms, 1660ms total)
T12E0 001:963 JLINK_WriteReg(CFBP, 0x00000000)  returns 0x00 (0000ms, 1660ms total)
T12E0 001:963 JLINK_SetBPEx(Addr = 0x20000000, Type = 0xFFFFFFF2) -- CPU_ReadMem(2 bytes @ 0x20000000)  returns 0x00000004 (0000ms, 1660ms total)
T12E0 001:963 JLINK_Go() -- CPU_WriteMem(2 bytes @ 0x20000000) -- CPU_ReadMem(4 bytes @ 0xE0001000) -- CPU_WriteMem(4 bytes @ 0xE0001000) (0003ms, 1663ms total)
T12E0 001:966 JLINK_IsHalted() -- CPU_ReadMem(2 bytes @ 0x20000000)  returns TRUE (0004ms, 1667ms total)
T12E0 001:970 JLINK_ReadReg(R15 (PC))  returns 0x20000000 (0000ms, 1663ms total)
T12E0 001:970 JLINK_ClrBPEx(BPHandle = 0x00000004)  returns 0x00 (0000ms, 1663ms total)
T12E0 001:970 JLINK_ReadReg(R0)  returns 0x00000000 (0000ms, 1663ms total)
T12E0 001:970 JLINK_WriteMem(0x20000178, 0x0288 Bytes, ...) - Data: 58 1A 00 20 89 01 00 08 AF 01 00 08 B1 01 00 08 ... -- CPU_WriteMem(648 bytes @ 0x20000178)  returns 0x288 (0031ms, 1694ms total)
T12E0 002:001 JLINK_WriteMem(0x20000400, 0x0178 Bytes, ...) - Data: 05 46 89 18 01 60 00 E0 45 60 28 68 41 19 A1 42 ... -- CPU_WriteMem(376 bytes @ 0x20000400)  returns 0x178 (0004ms, 1698ms total)
T12E0 002:005 JLINK_WriteReg(R0, 0x08000000)  returns 0x00 (0000ms, 1698ms total)
T12E0 002:005 JLINK_WriteReg(R1, 0x00000400)  returns 0x00 (0000ms, 1698ms total)
T12E0 002:005 JLINK_WriteReg(R2, 0x20000178)  returns 0x00 (0000ms, 1698ms total)
T12E0 002:005 JLINK_WriteReg(R3, 0x00000000)  returns 0x00 (0000ms, 1698ms total)
T12E0 002:005 JLINK_WriteReg(R4, 0x00000000)  returns 0x00 (0000ms, 1698ms total)
T12E0 002:005 JLINK_WriteReg(R5, 0x00000000)  returns 0x00 (0000ms, 1698ms total)
T12E0 002:005 JLINK_WriteReg(R6, 0x00000000)  returns 0x00 (0000ms, 1698ms total)
T12E0 002:005 JLINK_WriteReg(R7, 0x00000000)  returns 0x00 (0000ms, 1698ms total)
T12E0 002:005 JLINK_WriteReg(R8, 0x00000000)  returns 0x00 (0000ms, 1698ms total)
T12E0 002:005 JLINK_WriteReg(R9, 0x20000174)  returns 0x00 (0000ms, 1698ms total)
T12E0 002:005 JLINK_WriteReg(R10, 0x00000000)  returns 0x00 (0000ms, 1698ms total)
T12E0 002:005 JLINK_WriteReg(R11, 0x00000000)  returns 0x00 (0000ms, 1698ms total)
T12E0 002:005 JLINK_WriteReg(R12, 0x00000000)  returns 0x00 (0000ms, 1698ms total)
T12E0 002:005 JLINK_WriteReg(R13 (SP), 0x20001000)  returns 0x00 (0000ms, 1698ms total)
T12E0 002:005 JLINK_WriteReg(R14, 0x20000001)  returns 0x00 (0000ms, 1698ms total)
T12E0 002:005 JLINK_WriteReg(R15 (PC), 0x20000102)  returns 0x00 (0000ms, 1698ms total)
T12E0 002:005 JLINK_WriteReg(XPSR, 0x01000000)  returns 0x00 (0000ms, 1698ms total)
T12E0 002:005 JLINK_WriteReg(MSP, 0x20001000)  returns 0x00 (0000ms, 1698ms total)
T12E0 002:005 JLINK_WriteReg(PSP, 0x20001000)  returns 0x00 (0000ms, 1698ms total)
T12E0 002:005 JLINK_WriteReg(CFBP, 0x00000000)  returns 0x00 (0000ms, 1698ms total)
T12E0 002:005 JLINK_SetBPEx(Addr = 0x20000000, Type = 0xFFFFFFF2)  returns 0x00000005 (0000ms, 1698ms total)
T12E0 002:005 JLINK_Go() -- CPU_ReadMem(4 bytes @ 0xE0001000) -- CPU_WriteMem(4 bytes @ 0xE0001000) (0003ms, 1701ms total)
T12E0 002:008 JLINK_IsHalted()  returns FALSE (0002ms, 1703ms total)
T12E0 002:026 JLINK_IsHalted() -- CPU_ReadMem(2 bytes @ 0x20000000)  returns TRUE (0004ms, 1705ms total)
T12E0 002:031 JLINK_ReadReg(R15 (PC))  returns 0x20000000 (0000ms, 1701ms total)
T12E0 002:031 JLINK_ClrBPEx(BPHandle = 0x00000005)  returns 0x00 (0000ms, 1701ms total)
T12E0 002:031 JLINK_ReadReg(R0)  returns 0x00000000 (0000ms, 1701ms total)
T12E0 002:032 JLINK_WriteMem(0x20000178, 0x0288 Bytes, ...) - Data: 31 D3 03 09 8B 42 1C D3 03 0A 8B 42 01 D3 94 46 ... -- CPU_WriteMem(648 bytes @ 0x20000178)  returns 0x288 (0030ms, 1731ms total)
T12E0 002:062 JLINK_WriteMem(0x20000400, 0x0178 Bytes, ...) - Data: 10 B5 01 28 05 D0 00 21 03 A0 00 F0 27 F8 01 20 ... -- CPU_WriteMem(376 bytes @ 0x20000400)  returns 0x178 (0003ms, 1734ms total)
T12E0 002:065 JLINK_WriteReg(R0, 0x08000400)  returns 0x00 (0000ms, 1734ms total)
T12E0 002:065 JLINK_WriteReg(R1, 0x00000400)  returns 0x00 (0000ms, 1734ms total)
T12E0 002:065 JLINK_WriteReg(R2, 0x20000178)  returns 0x00 (0000ms, 1734ms total)
T12E0 002:065 JLINK_WriteReg(R3, 0x00000000)  returns 0x00 (0000ms, 1734ms total)
T12E0 002:065 JLINK_WriteReg(R4, 0x00000000)  returns 0x00 (0000ms, 1734ms total)
T12E0 002:065 JLINK_WriteReg(R5, 0x00000000)  returns 0x00 (0000ms, 1734ms total)
T12E0 002:065 JLINK_WriteReg(R6, 0x00000000)  returns 0x00 (0000ms, 1734ms total)
T12E0 002:065 JLINK_WriteReg(R7, 0x00000000)  returns 0x00 (0000ms, 1734ms total)
T12E0 002:065 JLINK_WriteReg(R8, 0x00000000)  returns 0x00 (0000ms, 1734ms total)
T12E0 002:065 JLINK_WriteReg(R9, 0x20000174)  returns 0x00 (0000ms, 1734ms total)
T12E0 002:065 JLINK_WriteReg(R10, 0x00000000)  returns 0x00 (0000ms, 1734ms total)
T12E0 002:065 JLINK_WriteReg(R11, 0x00000000)  returns 0x00 (0000ms, 1734ms total)
T12E0 002:065 JLINK_WriteReg(R12, 0x00000000)  returns 0x00 (0000ms, 1734ms total)
T12E0 002:065 JLINK_WriteReg(R13 (SP), 0x20001000)  returns 0x00 (0000ms, 1734ms total)
T12E0 002:065 JLINK_WriteReg(R14, 0x20000001)  returns 0x00 (0001ms, 1735ms total)
T12E0 002:066 JLINK_WriteReg(R15 (PC), 0x20000102)  returns 0x00 (0000ms, 1735ms total)
T12E0 002:066 JLINK_WriteReg(XPSR, 0x01000000)  returns 0x00 (0000ms, 1735ms total)
T12E0 002:066 JLINK_WriteReg(MSP, 0x20001000)  returns 0x00 (0000ms, 1735ms total)
T12E0 002:066 JLINK_WriteReg(PSP, 0x20001000)  returns 0x00 (0000ms, 1735ms total)
T12E0 002:066 JLINK_WriteReg(CFBP, 0x00000000)  returns 0x00 (0000ms, 1735ms total)
T12E0 002:066 JLINK_SetBPEx(Addr = 0x20000000, Type = 0xFFFFFFF2)  returns 0x00000006 (0000ms, 1735ms total)
T12E0 002:066 JLINK_Go() -- CPU_ReadMem(4 bytes @ 0xE0001000) -- CPU_WriteMem(4 bytes @ 0xE0001000) (0003ms, 1738ms total)
T12E0 002:069 JLINK_IsHalted() -- CPU_ReadMem(2 bytes @ 0x20000000)  returns TRUE (0033ms, 1771ms total)
T12E0 002:102 JLINK_ReadReg(R15 (PC))  returns 0x20000000 (0000ms, 1738ms total)
T12E0 002:102 JLINK_ClrBPEx(BPHandle = 0x00000006)  returns 0x00 (0000ms, 1738ms total)
T12E0 002:102 JLINK_ReadReg(R0)  returns 0x00000000 (0000ms, 1738ms total)
T12E0 002:103 JLINK_WriteMem(0x20000178, 0x0288 Bytes, ...) - Data: 01 98 00 78 00 28 24 D0 00 20 04 90 1C E0 38 79 ... -- CPU_WriteMem(648 bytes @ 0x20000178)  returns 0x288 (0005ms, 1743ms total)
T12E0 002:108 JLINK_WriteMem(0x20000400, 0x0178 Bytes, ...) - Data: B8 07 00 20 61 61 20 43 6F 6E 66 69 67 75 72 65 ... -- CPU_WriteMem(376 bytes @ 0x20000400)  returns 0x178 (0003ms, 1746ms total)
T12E0 002:111 JLINK_WriteReg(R0, 0x08000800)  returns 0x00 (0000ms, 1746ms total)
T12E0 002:112 JLINK_WriteReg(R1, 0x00000400)  returns 0x00 (0000ms, 1746ms total)
T12E0 002:112 JLINK_WriteReg(R2, 0x20000178)  returns 0x00 (0000ms, 1746ms total)
T12E0 002:112 JLINK_WriteReg(R3, 0x00000000)  returns 0x00 (0000ms, 1746ms total)
T12E0 002:112 JLINK_WriteReg(R4, 0x00000000)  returns 0x00 (0000ms, 1746ms total)
T12E0 002:112 JLINK_WriteReg(R5, 0x00000000)  returns 0x00 (0000ms, 1746ms total)
T12E0 002:112 JLINK_WriteReg(R6, 0x00000000)  returns 0x00 (0000ms, 1746ms total)
T12E0 002:112 JLINK_WriteReg(R7, 0x00000000)  returns 0x00 (0000ms, 1746ms total)
T12E0 002:112 JLINK_WriteReg(R8, 0x00000000)  returns 0x00 (0000ms, 1746ms total)
T12E0 002:112 JLINK_WriteReg(R9, 0x20000174)  returns 0x00 (0000ms, 1746ms total)
T12E0 002:112 JLINK_WriteReg(R10, 0x00000000)  returns 0x00 (0000ms, 1746ms total)
T12E0 002:112 JLINK_WriteReg(R11, 0x00000000)  returns 0x00 (0000ms, 1746ms total)
T12E0 002:112 JLINK_WriteReg(R12, 0x00000000)  returns 0x00 (0000ms, 1746ms total)
T12E0 002:112 JLINK_WriteReg(R13 (SP), 0x20001000)  returns 0x00 (0000ms, 1746ms total)
T12E0 002:112 JLINK_WriteReg(R14, 0x20000001)  returns 0x00 (0000ms, 1746ms total)
T12E0 002:112 JLINK_WriteReg(R15 (PC), 0x20000102)  returns 0x00 (0000ms, 1746ms total)
T12E0 002:112 JLINK_WriteReg(XPSR, 0x01000000)  returns 0x00 (0000ms, 1746ms total)
T12E0 002:112 JLINK_WriteReg(MSP, 0x20001000)  returns 0x00 (0000ms, 1746ms total)
T12E0 002:112 JLINK_WriteReg(PSP, 0x20001000)  returns 0x00 (0000ms, 1746ms total)
T12E0 002:112 JLINK_WriteReg(CFBP, 0x00000000)  returns 0x00 (0000ms, 1746ms total)
T12E0 002:112 JLINK_SetBPEx(Addr = 0x20000000, Type = 0xFFFFFFF2)  returns 0x00000007 (0000ms, 1746ms total)
T12E0 002:112 JLINK_Go() -- CPU_ReadMem(4 bytes @ 0xE0001000) -- CPU_WriteMem(4 bytes @ 0xE0001000) (0003ms, 1749ms total)
T12E0 002:115 JLINK_IsHalted()  returns FALSE (0001ms, 1750ms total)
T12E0 002:127 JLINK_IsHalted() -- CPU_ReadMem(2 bytes @ 0x20000000)  returns TRUE (0005ms, 1754ms total)
T12E0 002:132 JLINK_ReadReg(R15 (PC))  returns 0x20000000 (0000ms, 1749ms total)
T12E0 002:132 JLINK_ClrBPEx(BPHandle = 0x00000007)  returns 0x00 (0000ms, 1749ms total)
T12E0 002:132 JLINK_ReadReg(R0)  returns 0x00000000 (0000ms, 1749ms total)
T12E0 002:133 JLINK_WriteMem(0x20000178, 0x0288 Bytes, ...) - Data: 36 36 20 43 6F 6E 66 69 67 75 72 65 49 66 73 3B ... -- CPU_WriteMem(648 bytes @ 0x20000178)  returns 0x288 (0030ms, 1779ms total)
T12E0 002:163 JLINK_WriteMem(0x20000400, 0x0178 Bytes, ...) - Data: 01 98 40 38 01 90 18 A1 00 20 01 9A 01 F0 02 FD ... -- CPU_WriteMem(376 bytes @ 0x20000400)  returns 0x178 (0003ms, 1782ms total)
T12E0 002:166 JLINK_WriteReg(R0, 0x08000C00)  returns 0x00 (0001ms, 1783ms total)
T12E0 002:167 JLINK_WriteReg(R1, 0x00000400)  returns 0x00 (0000ms, 1783ms total)
T12E0 002:167 JLINK_WriteReg(R2, 0x20000178)  returns 0x00 (0000ms, 1783ms total)
T12E0 002:167 JLINK_WriteReg(R3, 0x00000000)  returns 0x00 (0000ms, 1783ms total)
T12E0 002:167 JLINK_WriteReg(R4, 0x00000000)  returns 0x00 (0000ms, 1783ms total)
T12E0 002:167 JLINK_WriteReg(R5, 0x00000000)  returns 0x00 (0000ms, 1783ms total)
T12E0 002:167 JLINK_WriteReg(R6, 0x00000000)  returns 0x00 (0000ms, 1783ms total)
T12E0 002:167 JLINK_WriteReg(R7, 0x00000000)  returns 0x00 (0000ms, 1783ms total)
T12E0 002:167 JLINK_WriteReg(R8, 0x00000000)  returns 0x00 (0000ms, 1783ms total)
T12E0 002:167 JLINK_WriteReg(R9, 0x20000174)  returns 0x00 (0000ms, 1783ms total)
T12E0 002:167 JLINK_WriteReg(R10, 0x00000000)  returns 0x00 (0000ms, 1783ms total)
T12E0 002:167 JLINK_WriteReg(R11, 0x00000000)  returns 0x00 (0000ms, 1783ms total)
T12E0 002:167 JLINK_WriteReg(R12, 0x00000000)  returns 0x00 (0000ms, 1783ms total)
T12E0 002:167 JLINK_WriteReg(R13 (SP), 0x20001000)  returns 0x00 (0000ms, 1783ms total)
T12E0 002:167 JLINK_WriteReg(R14, 0x20000001)  returns 0x00 (0000ms, 1783ms total)
T12E0 002:167 JLINK_WriteReg(R15 (PC), 0x20000102)  returns 0x00 (0000ms, 1783ms total)
T12E0 002:167 JLINK_WriteReg(XPSR, 0x01000000)  returns 0x00 (0000ms, 1783ms total)
T12E0 002:167 JLINK_WriteReg(MSP, 0x20001000)  returns 0x00 (0000ms, 1783ms total)
T12E0 002:167 JLINK_WriteReg(PSP, 0x20001000)  returns 0x00 (0000ms, 1783ms total)
T12E0 002:167 JLINK_WriteReg(CFBP, 0x00000000)  returns 0x00 (0000ms, 1783ms total)
T12E0 002:167 JLINK_SetBPEx(Addr = 0x20000000, Type = 0xFFFFFFF2)  returns 0x00000008 (0000ms, 1783ms total)
T12E0 002:167 JLINK_Go() -- CPU_ReadMem(4 bytes @ 0xE0001000) -- CPU_WriteMem(4 bytes @ 0xE0001000) (0003ms, 1786ms total)
T12E0 002:170 JLINK_IsHalted() -- CPU_ReadMem(2 bytes @ 0x20000000)  returns TRUE (0033ms, 1819ms total)
T12E0 002:203 JLINK_ReadReg(R15 (PC))  returns 0x20000000 (0000ms, 1786ms total)
T12E0 002:203 JLINK_ClrBPEx(BPHandle = 0x00000008)  returns 0x00 (0001ms, 1787ms total)
T12E0 002:204 JLINK_ReadReg(R0)  returns 0x00000000 (0000ms, 1787ms total)
T12E0 002:205 JLINK_WriteMem(0x20000178, 0x0288 Bytes, ...) - Data: 7F 1E 00 2F E9 D1 33 46 22 46 11 A1 00 20 01 F0 ... -- CPU_WriteMem(648 bytes @ 0x20000178)  returns 0x288 (0004ms, 1791ms total)
T12E0 002:209 JLINK_WriteMem(0x20000400, 0x0178 Bytes, ...) - Data: 03 28 18 D1 00 E0 00 BF 00 BF 0D 49 01 20 FF F7 ... -- CPU_WriteMem(376 bytes @ 0x20000400)  returns 0x178 (0004ms, 1795ms total)
T12E0 002:213 JLINK_WriteReg(R0, 0x08001000)  returns 0x00 (0000ms, 1795ms total)
T12E0 002:213 JLINK_WriteReg(R1, 0x00000400)  returns 0x00 (0000ms, 1795ms total)
T12E0 002:213 JLINK_WriteReg(R2, 0x20000178)  returns 0x00 (0000ms, 1795ms total)
T12E0 002:213 JLINK_WriteReg(R3, 0x00000000)  returns 0x00 (0000ms, 1795ms total)
T12E0 002:213 JLINK_WriteReg(R4, 0x00000000)  returns 0x00 (0000ms, 1795ms total)
T12E0 002:213 JLINK_WriteReg(R5, 0x00000000)  returns 0x00 (0000ms, 1795ms total)
T12E0 002:213 JLINK_WriteReg(R6, 0x00000000)  returns 0x00 (0000ms, 1795ms total)
T12E0 002:213 JLINK_WriteReg(R7, 0x00000000)  returns 0x00 (0000ms, 1795ms total)
T12E0 002:213 JLINK_WriteReg(R8, 0x00000000)  returns 0x00 (0000ms, 1795ms total)
T12E0 002:213 JLINK_WriteReg(R9, 0x20000174)  returns 0x00 (0001ms, 1796ms total)
T12E0 002:214 JLINK_WriteReg(R10, 0x00000000)  returns 0x00 (0000ms, 1796ms total)
T12E0 002:214 JLINK_WriteReg(R11, 0x00000000)  returns 0x00 (0000ms, 1796ms total)
T12E0 002:214 JLINK_WriteReg(R12, 0x00000000)  returns 0x00 (0000ms, 1796ms total)
T12E0 002:214 JLINK_WriteReg(R13 (SP), 0x20001000)  returns 0x00 (0000ms, 1796ms total)
T12E0 002:214 JLINK_WriteReg(R14, 0x20000001)  returns 0x00 (0000ms, 1796ms total)
T12E0 002:214 JLINK_WriteReg(R15 (PC), 0x20000102)  returns 0x00 (0000ms, 1796ms total)
T12E0 002:214 JLINK_WriteReg(XPSR, 0x01000000)  returns 0x00 (0000ms, 1796ms total)
T12E0 002:214 JLINK_WriteReg(MSP, 0x20001000)  returns 0x00 (0000ms, 1796ms total)
T12E0 002:214 JLINK_WriteReg(PSP, 0x20001000)  returns 0x00 (0000ms, 1796ms total)
T12E0 002:214 JLINK_WriteReg(CFBP, 0x00000000)  returns 0x00 (0000ms, 1796ms total)
T12E0 002:214 JLINK_SetBPEx(Addr = 0x20000000, Type = 0xFFFFFFF2)  returns 0x00000009 (0000ms, 1796ms total)
T12E0 002:214 JLINK_Go() -- CPU_ReadMem(4 bytes @ 0xE0001000) -- CPU_WriteMem(4 bytes @ 0xE0001000) (0003ms, 1799ms total)
T12E0 002:217 JLINK_IsHalted()  returns FALSE (0001ms, 1800ms total)
T12E0 002:237 JLINK_IsHalted() -- CPU_ReadMem(2 bytes @ 0x20000000)  returns TRUE (0023ms, 1822ms total)
T12E0 002:260 JLINK_ReadReg(R15 (PC))  returns 0x20000000 (0000ms, 1799ms total)
T12E0 002:260 JLINK_ClrBPEx(BPHandle = 0x00000009)  returns 0x00 (0000ms, 1799ms total)
T12E0 002:260 JLINK_ReadReg(R0)  returns 0x00000000 (0000ms, 1799ms total)
T12E0 002:261 JLINK_WriteMem(0x20000178, 0x0288 Bytes, ...) - Data: 01 F0 90 F9 10 BD 00 00 00 54 00 40 00 29 05 D0 ... -- CPU_WriteMem(648 bytes @ 0x20000178)  returns 0x288 (0005ms, 1804ms total)
T12E0 002:266 JLINK_WriteMem(0x20000400, 0x0178 Bytes, ...) - Data: 05 98 07 90 20 46 FE F7 E6 FD 07 98 81 E7 00 00 ... -- CPU_WriteMem(376 bytes @ 0x20000400)  returns 0x178 (0029ms, 1833ms total)
T12E0 002:295 JLINK_WriteReg(R0, 0x08001400)  returns 0x00 (0000ms, 1833ms total)
T12E0 002:295 JLINK_WriteReg(R1, 0x00000400)  returns 0x00 (0000ms, 1833ms total)
T12E0 002:295 JLINK_WriteReg(R2, 0x20000178)  returns 0x00 (0000ms, 1833ms total)
T12E0 002:296 JLINK_WriteReg(R3, 0x00000000)  returns 0x00 (0000ms, 1834ms total)
T12E0 002:296 JLINK_WriteReg(R4, 0x00000000)  returns 0x00 (0000ms, 1834ms total)
T12E0 002:296 JLINK_WriteReg(R5, 0x00000000)  returns 0x00 (0000ms, 1834ms total)
T12E0 002:296 JLINK_WriteReg(R6, 0x00000000)  returns 0x00 (0000ms, 1834ms total)
T12E0 002:296 JLINK_WriteReg(R7, 0x00000000)  returns 0x00 (0000ms, 1834ms total)
T12E0 002:296 JLINK_WriteReg(R8, 0x00000000)  returns 0x00 (0000ms, 1834ms total)
T12E0 002:296 JLINK_WriteReg(R9, 0x20000174)  returns 0x00 (0000ms, 1834ms total)
T12E0 002:296 JLINK_WriteReg(R10, 0x00000000)  returns 0x00 (0000ms, 1834ms total)
T12E0 002:296 JLINK_WriteReg(R11, 0x00000000)  returns 0x00 (0000ms, 1834ms total)
T12E0 002:296 JLINK_WriteReg(R12, 0x00000000)  returns 0x00 (0000ms, 1834ms total)
T12E0 002:296 JLINK_WriteReg(R13 (SP), 0x20001000)  returns 0x00 (0000ms, 1834ms total)
T12E0 002:296 JLINK_WriteReg(R14, 0x20000001)  returns 0x00 (0000ms, 1834ms total)
T12E0 002:296 JLINK_WriteReg(R15 (PC), 0x20000102)  returns 0x00 (0000ms, 1834ms total)
T12E0 002:296 JLINK_WriteReg(XPSR, 0x01000000)  returns 0x00 (0000ms, 1834ms total)
T12E0 002:296 JLINK_WriteReg(MSP, 0x20001000)  returns 0x00 (0000ms, 1834ms total)
T12E0 002:296 JLINK_WriteReg(PSP, 0x20001000)  returns 0x00 (0000ms, 1834ms total)
T12E0 002:296 JLINK_WriteReg(CFBP, 0x00000000)  returns 0x00 (0000ms, 1834ms total)
T12E0 002:296 JLINK_SetBPEx(Addr = 0x20000000, Type = 0xFFFFFFF2)  returns 0x0000000A (0000ms, 1834ms total)
T12E0 002:296 JLINK_Go() -- CPU_ReadMem(4 bytes @ 0xE0001000) -- CPU_WriteMem(4 bytes @ 0xE0001000) (0003ms, 1837ms total)
T12E0 002:300 JLINK_IsHalted()  returns FALSE (0000ms, 1837ms total)
T12E0 002:309 JLINK_IsHalted() -- CPU_ReadMem(2 bytes @ 0x20000000)  returns TRUE (0004ms, 1841ms total)
T12E0 002:313 JLINK_ReadReg(R15 (PC))  returns 0x20000000 (0000ms, 1837ms total)
T12E0 002:313 JLINK_ClrBPEx(BPHandle = 0x0000000A)  returns 0x00 (0000ms, 1837ms total)
T12E0 002:313 JLINK_ReadReg(R0)  returns 0x00000000 (0000ms, 1837ms total)
T12E0 002:314 JLINK_WriteMem(0x20000178, 0x0288 Bytes, ...) - Data: 2E FD 28 46 70 E7 08 A8 40 79 00 28 09 D1 08 A8 ... -- CPU_WriteMem(648 bytes @ 0x20000178)  returns 0x288 (0005ms, 1842ms total)
T12E0 002:319 JLINK_WriteMem(0x20000400, 0x0178 Bytes, ...) - Data: 2B E0 1D 48 85 42 05 D1 6A 46 A1 1D 30 46 FF F7 ... -- CPU_WriteMem(376 bytes @ 0x20000400)  returns 0x178 (0003ms, 1845ms total)
T12E0 002:322 JLINK_WriteReg(R0, 0x08001800)  returns 0x00 (0000ms, 1845ms total)
T12E0 002:322 JLINK_WriteReg(R1, 0x00000400)  returns 0x00 (0000ms, 1845ms total)
T12E0 002:322 JLINK_WriteReg(R2, 0x20000178)  returns 0x00 (0000ms, 1845ms total)
T12E0 002:322 JLINK_WriteReg(R3, 0x00000000)  returns 0x00 (0000ms, 1845ms total)
T12E0 002:322 JLINK_WriteReg(R4, 0x00000000)  returns 0x00 (0000ms, 1845ms total)
T12E0 002:322 JLINK_WriteReg(R5, 0x00000000)  returns 0x00 (0000ms, 1845ms total)
T12E0 002:322 JLINK_WriteReg(R6, 0x00000000)  returns 0x00 (0000ms, 1845ms total)
T12E0 002:322 JLINK_WriteReg(R7, 0x00000000)  returns 0x00 (0000ms, 1845ms total)
T12E0 002:322 JLINK_WriteReg(R8, 0x00000000)  returns 0x00 (0000ms, 1845ms total)
T12E0 002:322 JLINK_WriteReg(R9, 0x20000174)  returns 0x00 (0001ms, 1846ms total)
T12E0 002:323 JLINK_WriteReg(R10, 0x00000000)  returns 0x00 (0000ms, 1846ms total)
T12E0 002:323 JLINK_WriteReg(R11, 0x00000000)  returns 0x00 (0000ms, 1846ms total)
T12E0 002:323 JLINK_WriteReg(R12, 0x00000000)  returns 0x00 (0000ms, 1846ms total)
T12E0 002:323 JLINK_WriteReg(R13 (SP), 0x20001000)  returns 0x00 (0000ms, 1846ms total)
T12E0 002:323 JLINK_WriteReg(R14, 0x20000001)  returns 0x00 (0000ms, 1846ms total)
T12E0 002:323 JLINK_WriteReg(R15 (PC), 0x20000102)  returns 0x00 (0000ms, 1846ms total)
T12E0 002:323 JLINK_WriteReg(XPSR, 0x01000000)  returns 0x00 (0000ms, 1846ms total)
T12E0 002:323 JLINK_WriteReg(MSP, 0x20001000)  returns 0x00 (0000ms, 1846ms total)
T12E0 002:323 JLINK_WriteReg(PSP, 0x20001000)  returns 0x00 (0000ms, 1846ms total)
T12E0 002:323 JLINK_WriteReg(CFBP, 0x00000000)  returns 0x00 (0000ms, 1846ms total)
T12E0 002:323 JLINK_SetBPEx(Addr = 0x20000000, Type = 0xFFFFFFF2)  returns 0x0000000B (0000ms, 1846ms total)
T12E0 002:323 JLINK_Go() -- CPU_ReadMem(4 bytes @ 0xE0001000) -- CPU_WriteMem(4 bytes @ 0xE0001000) (0003ms, 1849ms total)
T12E0 002:326 JLINK_IsHalted() -- CPU_ReadMem(2 bytes @ 0x20000000)  returns TRUE (0033ms, 1882ms total)
T12E0 002:359 JLINK_ReadReg(R15 (PC))  returns 0x20000000 (0000ms, 1849ms total)
T12E0 002:359 JLINK_ClrBPEx(BPHandle = 0x0000000B)  returns 0x00 (0000ms, 1849ms total)
T12E0 002:359 JLINK_ReadReg(R0)  returns 0x00000000 (0000ms, 1849ms total)
T12E0 002:360 JLINK_WriteMem(0x20000178, 0x0288 Bytes, ...) - Data: 70 BD 00 00 70 B5 04 46 0D 46 10 49 20 46 FE F7 ... -- CPU_WriteMem(648 bytes @ 0x20000178)  returns 0x288 (0005ms, 1854ms total)
T12E0 002:365 JLINK_WriteMem(0x20000400, 0x0178 Bytes, ...) - Data: 88 42 05 DD 27 20 40 01 20 18 40 7D FF 28 09 D1 ... -- CPU_WriteMem(376 bytes @ 0x20000400)  returns 0x178 (0029ms, 1883ms total)
T12E0 002:394 JLINK_WriteReg(R0, 0x08001C00)  returns 0x00 (0001ms, 1884ms total)
T12E0 002:395 JLINK_WriteReg(R1, 0x00000400)  returns 0x00 (0000ms, 1884ms total)
T12E0 002:395 JLINK_WriteReg(R2, 0x20000178)  returns 0x00 (0000ms, 1884ms total)
T12E0 002:395 JLINK_WriteReg(R3, 0x00000000)  returns 0x00 (0000ms, 1884ms total)
T12E0 002:395 JLINK_WriteReg(R4, 0x00000000)  returns 0x00 (0000ms, 1884ms total)
T12E0 002:395 JLINK_WriteReg(R5, 0x00000000)  returns 0x00 (0000ms, 1884ms total)
T12E0 002:395 JLINK_WriteReg(R6, 0x00000000)  returns 0x00 (0000ms, 1884ms total)
T12E0 002:395 JLINK_WriteReg(R7, 0x00000000)  returns 0x00 (0000ms, 1884ms total)
T12E0 002:395 JLINK_WriteReg(R8, 0x00000000)  returns 0x00 (0000ms, 1884ms total)
T12E0 002:395 JLINK_WriteReg(R9, 0x20000174)  returns 0x00 (0000ms, 1884ms total)
T12E0 002:395 JLINK_WriteReg(R10, 0x00000000)  returns 0x00 (0000ms, 1884ms total)
T12E0 002:395 JLINK_WriteReg(R11, 0x00000000)  returns 0x00 (0000ms, 1884ms total)
T12E0 002:395 JLINK_WriteReg(R12, 0x00000000)  returns 0x00 (0000ms, 1884ms total)
T12E0 002:395 JLINK_WriteReg(R13 (SP), 0x20001000)  returns 0x00 (0000ms, 1884ms total)
T12E0 002:395 JLINK_WriteReg(R14, 0x20000001)  returns 0x00 (0000ms, 1884ms total)
T12E0 002:395 JLINK_WriteReg(R15 (PC), 0x20000102)  returns 0x00 (0000ms, 1884ms total)
T12E0 002:395 JLINK_WriteReg(XPSR, 0x01000000)  returns 0x00 (0000ms, 1884ms total)
T12E0 002:395 JLINK_WriteReg(MSP, 0x20001000)  returns 0x00 (0000ms, 1884ms total)
T12E0 002:395 JLINK_WriteReg(PSP, 0x20001000)  returns 0x00 (0000ms, 1884ms total)
T12E0 002:395 JLINK_WriteReg(CFBP, 0x00000000)  returns 0x00 (0000ms, 1884ms total)
T12E0 002:395 JLINK_SetBPEx(Addr = 0x20000000, Type = 0xFFFFFFF2)  returns 0x0000000C (0000ms, 1884ms total)
T12E0 002:395 JLINK_Go() -- CPU_ReadMem(4 bytes @ 0xE0001000) -- CPU_WriteMem(4 bytes @ 0xE0001000) (0003ms, 1887ms total)
T12E0 002:398 JLINK_IsHalted()  returns FALSE (0001ms, 1888ms total)
T12E0 002:407 JLINK_IsHalted() -- CPU_ReadMem(2 bytes @ 0x20000000)  returns TRUE (0004ms, 1891ms total)
T12E0 002:411 JLINK_ReadReg(R15 (PC))  returns 0x20000000 (0000ms, 1887ms total)
T12E0 002:411 JLINK_ClrBPEx(BPHandle = 0x0000000C)  returns 0x00 (0000ms, 1887ms total)
T12E0 002:411 JLINK_ReadReg(R0)  returns 0x00000000 (0000ms, 1887ms total)
T12E0 002:412 JLINK_WriteMem(0x20000178, 0x0288 Bytes, ...) - Data: 65 6E 64 20 69 6E 69 74 69 61 6C 69 7A 61 74 69 ... -- CPU_WriteMem(648 bytes @ 0x20000178)  returns 0x288 (0005ms, 1892ms total)
T12E0 002:417 JLINK_WriteMem(0x20000400, 0x0178 Bytes, ...) - Data: 49 01 61 18 08 75 2A A1 00 20 00 F0 03 FB 01 20 ... -- CPU_WriteMem(376 bytes @ 0x20000400)  returns 0x178 (0003ms, 1895ms total)
T12E0 002:420 JLINK_WriteReg(R0, 0x08002000)  returns 0x00 (0000ms, 1895ms total)
T12E0 002:420 JLINK_WriteReg(R1, 0x00000400)  returns 0x00 (0000ms, 1895ms total)
T12E0 002:420 JLINK_WriteReg(R2, 0x20000178)  returns 0x00 (0000ms, 1895ms total)
T12E0 002:420 JLINK_WriteReg(R3, 0x00000000)  returns 0x00 (0000ms, 1895ms total)
T12E0 002:420 JLINK_WriteReg(R4, 0x00000000)  returns 0x00 (0000ms, 1895ms total)
T12E0 002:420 JLINK_WriteReg(R5, 0x00000000)  returns 0x00 (0000ms, 1895ms total)
T12E0 002:420 JLINK_WriteReg(R6, 0x00000000)  returns 0x00 (0000ms, 1895ms total)
T12E0 002:420 JLINK_WriteReg(R7, 0x00000000)  returns 0x00 (0000ms, 1895ms total)
T12E0 002:420 JLINK_WriteReg(R8, 0x00000000)  returns 0x00 (0000ms, 1895ms total)
T12E0 002:420 JLINK_WriteReg(R9, 0x20000174)  returns 0x00 (0000ms, 1895ms total)
T12E0 002:420 JLINK_WriteReg(R10, 0x00000000)  returns 0x00 (0000ms, 1895ms total)
T12E0 002:420 JLINK_WriteReg(R11, 0x00000000)  returns 0x00 (0000ms, 1895ms total)
T12E0 002:420 JLINK_WriteReg(R12, 0x00000000)  returns 0x00 (0000ms, 1895ms total)
T12E0 002:420 JLINK_WriteReg(R13 (SP), 0x20001000)  returns 0x00 (0000ms, 1895ms total)
T12E0 002:421 JLINK_WriteReg(R14, 0x20000001)  returns 0x00 (0000ms, 1896ms total)
T12E0 002:421 JLINK_WriteReg(R15 (PC), 0x20000102)  returns 0x00 (0000ms, 1896ms total)
T12E0 002:421 JLINK_WriteReg(XPSR, 0x01000000)  returns 0x00 (0000ms, 1896ms total)
T12E0 002:421 JLINK_WriteReg(MSP, 0x20001000)  returns 0x00 (0000ms, 1896ms total)
T12E0 002:421 JLINK_WriteReg(PSP, 0x20001000)  returns 0x00 (0000ms, 1896ms total)
T12E0 002:421 JLINK_WriteReg(CFBP, 0x00000000)  returns 0x00 (0000ms, 1896ms total)
T12E0 002:421 JLINK_SetBPEx(Addr = 0x20000000, Type = 0xFFFFFFF2)  returns 0x0000000D (0000ms, 1896ms total)
T12E0 002:421 JLINK_Go() -- CPU_ReadMem(4 bytes @ 0xE0001000) -- CPU_WriteMem(4 bytes @ 0xE0001000) (0003ms, 1899ms total)
T12E0 002:424 JLINK_IsHalted() -- CPU_ReadMem(2 bytes @ 0x20000000)  returns TRUE (0033ms, 1932ms total)
T12E0 002:457 JLINK_ReadReg(R15 (PC))  returns 0x20000000 (0000ms, 1899ms total)
T12E0 002:457 JLINK_ClrBPEx(BPHandle = 0x0000000D)  returns 0x00 (0000ms, 1899ms total)
T12E0 002:457 JLINK_ReadReg(R0)  returns 0x00000000 (0000ms, 1899ms total)
T12E0 002:458 JLINK_WriteMem(0x20000178, 0x0288 Bytes, ...) - Data: 60 70 80 20 A0 70 1E 20 E0 70 05 20 20 71 DC 20 ... -- CPU_WriteMem(648 bytes @ 0x20000178)  returns 0x288 (0005ms, 1904ms total)
T12E0 002:463 JLINK_WriteMem(0x20000400, 0x0178 Bytes, ...) - Data: 9A 43 8B 07 1B 0E 84 07 E4 0E A3 40 1A 43 11 4B ... -- CPU_WriteMem(376 bytes @ 0x20000400)  returns 0x178 (0003ms, 1907ms total)
T12E0 002:466 JLINK_WriteReg(R0, 0x08002400)  returns 0x00 (0000ms, 1907ms total)
T12E0 002:466 JLINK_WriteReg(R1, 0x00000400)  returns 0x00 (0000ms, 1907ms total)
T12E0 002:466 JLINK_WriteReg(R2, 0x20000178)  returns 0x00 (0000ms, 1907ms total)
T12E0 002:466 JLINK_WriteReg(R3, 0x00000000)  returns 0x00 (0000ms, 1907ms total)
T12E0 002:466 JLINK_WriteReg(R4, 0x00000000)  returns 0x00 (0000ms, 1907ms total)
T12E0 002:466 JLINK_WriteReg(R5, 0x00000000)  returns 0x00 (0000ms, 1907ms total)
T12E0 002:466 JLINK_WriteReg(R6, 0x00000000)  returns 0x00 (0000ms, 1907ms total)
T12E0 002:466 JLINK_WriteReg(R7, 0x00000000)  returns 0x00 (0000ms, 1907ms total)
T12E0 002:466 JLINK_WriteReg(R8, 0x00000000)  returns 0x00 (0000ms, 1907ms total)
T12E0 002:466 JLINK_WriteReg(R9, 0x20000174)  returns 0x00 (0000ms, 1907ms total)
T12E0 002:466 JLINK_WriteReg(R10, 0x00000000)  returns 0x00 (0000ms, 1907ms total)
T12E0 002:466 JLINK_WriteReg(R11, 0x00000000)  returns 0x00 (0000ms, 1907ms total)
T12E0 002:466 JLINK_WriteReg(R12, 0x00000000)  returns 0x00 (0000ms, 1907ms total)
T12E0 002:466 JLINK_WriteReg(R13 (SP), 0x20001000)  returns 0x00 (0001ms, 1908ms total)
T12E0 002:467 JLINK_WriteReg(R14, 0x20000001)  returns 0x00 (0000ms, 1908ms total)
T12E0 002:467 JLINK_WriteReg(R15 (PC), 0x20000102)  returns 0x00 (0000ms, 1908ms total)
T12E0 002:467 JLINK_WriteReg(XPSR, 0x01000000)  returns 0x00 (0000ms, 1908ms total)
T12E0 002:467 JLINK_WriteReg(MSP, 0x20001000)  returns 0x00 (0000ms, 1908ms total)
T12E0 002:467 JLINK_WriteReg(PSP, 0x20001000)  returns 0x00 (0000ms, 1908ms total)
T12E0 002:467 JLINK_WriteReg(CFBP, 0x00000000)  returns 0x00 (0000ms, 1908ms total)
T12E0 002:467 JLINK_SetBPEx(Addr = 0x20000000, Type = 0xFFFFFFF2)  returns 0x0000000E (0000ms, 1908ms total)
T12E0 002:467 JLINK_Go() -- CPU_ReadMem(4 bytes @ 0xE0001000) -- CPU_WriteMem(4 bytes @ 0xE0001000) (0029ms, 1937ms total)
T12E0 002:496 JLINK_IsHalted()  returns FALSE (0001ms, 1938ms total)
T12E0 002:501 JLINK_IsHalted()  returns FALSE (0000ms, 1937ms total)
T12E0 002:502 JLINK_IsHalted()  returns FALSE (0000ms, 1937ms total)
T12E0 002:503 JLINK_IsHalted()  returns FALSE (0001ms, 1938ms total)
T12E0 002:505 JLINK_IsHalted() -- CPU_ReadMem(2 bytes @ 0x20000000)  returns TRUE (0004ms, 1941ms total)
T12E0 002:509 JLINK_ReadReg(R15 (PC))  returns 0x20000000 (0000ms, 1937ms total)
T12E0 002:509 JLINK_ClrBPEx(BPHandle = 0x0000000E)  returns 0x00 (0000ms, 1937ms total)
T12E0 002:509 JLINK_ReadReg(R0)  returns 0x00000000 (0000ms, 1937ms total)
T12E0 002:510 JLINK_WriteMem(0x20000178, 0x0288 Bytes, ...) - Data: 0B F8 00 90 F8 B2 80 F3 10 88 00 BF 00 BF 00 98 ... -- CPU_WriteMem(648 bytes @ 0x20000178)  returns 0x288 (0005ms, 1942ms total)
T12E0 002:515 JLINK_WriteMem(0x20000400, 0x0178 Bytes, ...) - Data: 77 F8 07 E0 00 E0 04 E0 25 21 15 A8 02 F0 FE F8 ... -- CPU_WriteMem(376 bytes @ 0x20000400)  returns 0x178 (0003ms, 1945ms total)
T12E0 002:518 JLINK_WriteReg(R0, 0x08002800)  returns 0x00 (0000ms, 1945ms total)
T12E0 002:518 JLINK_WriteReg(R1, 0x00000400)  returns 0x00 (0000ms, 1945ms total)
T12E0 002:518 JLINK_WriteReg(R2, 0x20000178)  returns 0x00 (0000ms, 1945ms total)
T12E0 002:519 JLINK_WriteReg(R3, 0x00000000)  returns 0x00 (0000ms, 1946ms total)
T12E0 002:519 JLINK_WriteReg(R4, 0x00000000)  returns 0x00 (0000ms, 1946ms total)
T12E0 002:519 JLINK_WriteReg(R5, 0x00000000)  returns 0x00 (0000ms, 1946ms total)
T12E0 002:519 JLINK_WriteReg(R6, 0x00000000)  returns 0x00 (0000ms, 1946ms total)
T12E0 002:519 JLINK_WriteReg(R7, 0x00000000)  returns 0x00 (0000ms, 1946ms total)
T12E0 002:519 JLINK_WriteReg(R8, 0x00000000)  returns 0x00 (0000ms, 1946ms total)
T12E0 002:519 JLINK_WriteReg(R9, 0x20000174)  returns 0x00 (0000ms, 1946ms total)
T12E0 002:519 JLINK_WriteReg(R10, 0x00000000)  returns 0x00 (0000ms, 1946ms total)
T12E0 002:519 JLINK_WriteReg(R11, 0x00000000)  returns 0x00 (0000ms, 1946ms total)
T12E0 002:519 JLINK_WriteReg(R12, 0x00000000)  returns 0x00 (0000ms, 1946ms total)
T12E0 002:519 JLINK_WriteReg(R13 (SP), 0x20001000)  returns 0x00 (0000ms, 1946ms total)
T12E0 002:519 JLINK_WriteReg(R14, 0x20000001)  returns 0x00 (0000ms, 1946ms total)
T12E0 002:519 JLINK_WriteReg(R15 (PC), 0x20000102)  returns 0x00 (0000ms, 1946ms total)
T12E0 002:519 JLINK_WriteReg(XPSR, 0x01000000)  returns 0x00 (0000ms, 1946ms total)
T12E0 002:519 JLINK_WriteReg(MSP, 0x20001000)  returns 0x00 (0000ms, 1946ms total)
T12E0 002:519 JLINK_WriteReg(PSP, 0x20001000)  returns 0x00 (0000ms, 1946ms total)
T12E0 002:519 JLINK_WriteReg(CFBP, 0x00000000)  returns 0x00 (0000ms, 1946ms total)
T12E0 002:519 JLINK_SetBPEx(Addr = 0x20000000, Type = 0xFFFFFFF2)  returns 0x0000000F (0000ms, 1946ms total)
T12E0 002:519 JLINK_Go() -- CPU_ReadMem(4 bytes @ 0xE0001000) -- CPU_WriteMem(4 bytes @ 0xE0001000) (0003ms, 1949ms total)
T12E0 002:522 JLINK_IsHalted()  returns FALSE (0001ms, 1950ms total)
T12E0 002:528 JLINK_IsHalted() -- CPU_ReadMem(2 bytes @ 0x20000000)  returns TRUE (0029ms, 1978ms total)
T12E0 002:558 JLINK_ReadReg(R15 (PC))  returns 0x20000000 (0000ms, 1949ms total)
T12E0 002:558 JLINK_ClrBPEx(BPHandle = 0x0000000F)  returns 0x00 (0000ms, 1949ms total)
T12E0 002:558 JLINK_ReadReg(R0)  returns 0x00000000 (0000ms, 1949ms total)
T12E0 002:559 JLINK_WriteMem(0x20000178, 0x0288 Bytes, ...) - Data: 08 21 28 46 B8 47 00 20 CD E7 00 00 C3 65 00 08 ... -- CPU_WriteMem(648 bytes @ 0x20000178)  returns 0x288 (0004ms, 1953ms total)
T12E0 002:564 JLINK_WriteMem(0x20000400, 0x0178 Bytes, ...) - Data: 00 20 FF F7 07 FD 01 20 E4 E7 25 48 01 68 25 48 ... -- CPU_WriteMem(376 bytes @ 0x20000400)  returns 0x178 (0003ms, 1956ms total)
T12E0 002:567 JLINK_WriteReg(R0, 0x08002C00)  returns 0x00 (0000ms, 1956ms total)
T12E0 002:567 JLINK_WriteReg(R1, 0x00000400)  returns 0x00 (0000ms, 1956ms total)
T12E0 002:567 JLINK_WriteReg(R2, 0x20000178)  returns 0x00 (0000ms, 1956ms total)
T12E0 002:567 JLINK_WriteReg(R3, 0x00000000)  returns 0x00 (0000ms, 1956ms total)
T12E0 002:567 JLINK_WriteReg(R4, 0x00000000)  returns 0x00 (0000ms, 1956ms total)
T12E0 002:567 JLINK_WriteReg(R5, 0x00000000)  returns 0x00 (0000ms, 1956ms total)
T12E0 002:567 JLINK_WriteReg(R6, 0x00000000)  returns 0x00 (0000ms, 1956ms total)
T12E0 002:567 JLINK_WriteReg(R7, 0x00000000)  returns 0x00 (0000ms, 1956ms total)
T12E0 002:567 JLINK_WriteReg(R8, 0x00000000)  returns 0x00 (0000ms, 1956ms total)
T12E0 002:567 JLINK_WriteReg(R9, 0x20000174)  returns 0x00 (0000ms, 1956ms total)
T12E0 002:567 JLINK_WriteReg(R10, 0x00000000)  returns 0x00 (0000ms, 1956ms total)
T12E0 002:567 JLINK_WriteReg(R11, 0x00000000)  returns 0x00 (0000ms, 1956ms total)
T12E0 002:567 JLINK_WriteReg(R12, 0x00000000)  returns 0x00 (0000ms, 1956ms total)
T12E0 002:567 JLINK_WriteReg(R13 (SP), 0x20001000)  returns 0x00 (0000ms, 1956ms total)
T12E0 002:567 JLINK_WriteReg(R14, 0x20000001)  returns 0x00 (0000ms, 1956ms total)
T12E0 002:567 JLINK_WriteReg(R15 (PC), 0x20000102)  returns 0x00 (0000ms, 1956ms total)
T12E0 002:567 JLINK_WriteReg(XPSR, 0x01000000)  returns 0x00 (0000ms, 1956ms total)
